<Qucs Dataset 0.0.18>
<indep adc 1>
  +8.86580086579e+02
</indep>
<indep acfrequency 51>
  +1.00000000000e+00
  +1.20226443462e+00
  +1.44543977075e+00
  +1.73780082875e+00
  +2.08929613085e+00
  +2.51188643151e+00
  +3.01995172040e+00
  +3.63078054770e+00
  +4.36515832240e+00
  +5.24807460250e+00
  +6.30957344480e+00
  +7.58577575029e+00
  +9.12010839356e+00
  +1.09647819614e+01
  +1.31825673856e+01
  +1.58489319246e+01
  +1.90546071796e+01
  +2.29086765277e+01
  +2.75422870334e+01
  +3.31131121483e+01
  +3.98107170553e+01
  +4.78630092323e+01
  +5.75439937337e+01
  +6.91830970919e+01
  +8.31763771103e+01
  +1.00000000000e+02
  +1.20226443462e+02
  +1.44543977075e+02
  +1.73780082875e+02
  +2.08929613085e+02
  +2.51188643151e+02
  +3.01995172040e+02
  +3.63078054770e+02
  +4.36515832240e+02
  +5.24807460250e+02
  +6.30957344480e+02
  +7.58577575029e+02
  +9.12010839356e+02
  +1.09647819614e+03
  +1.31825673856e+03
  +1.58489319246e+03
  +1.90546071796e+03
  +2.29086765277e+03
  +2.75422870334e+03
  +3.31131121483e+03
  +3.98107170553e+03
  +4.78630092323e+03
  +5.75439937337e+03
  +6.91830970919e+03
  +8.31763771103e+03
  +1.00000000000e+04
</indep>
<dep Pr1.v acfrequency>
  +1.02038264449e+00-j5.10283423370e-03
  +1.02037127782e+00-j6.13488777389e-03
  +1.02035484843e+00-j7.37563862105e-03
  +1.02033110168e+00-j8.86726162380e-03
  +1.02029677914e+00-j1.06604346682e-02
  +1.02024717204e+00-j1.28160383097e-02
  +1.02017547650e+00-j1.54071842717e-02
  +1.02007186273e+00-j1.85216283535e-02
  +1.01992213244e+00-j2.22646264687e-02
  +1.01970578401e+00-j2.67622904649e-02
  +1.01939322754e+00-j3.21654877449e-02
  +1.01894178449e+00-j3.86542961179e-02
  +1.01828995697e+00-j4.64429564137e-02
  +1.01734925210e+00-j5.57851323058e-02
  +1.01599258757e+00-j6.69790428012e-02
  +1.01403799328e+00-j8.03716019036e-02
  +1.01122599976e+00-j9.63599629995e-02
  +1.00718888577e+00-j1.15387648264e-01
  +1.00141012437e+00-j1.37930520517e-01
  +9.93173505630e-01-j1.64465012686e-01
  +9.81504621304e-01-j1.95407282924e-01
  +9.65114467275e-01-j2.31008107972e-01
  +9.42368140125e-01-j2.71187078345e-01
  +9.11322228372e-01-j3.15297379105e-01
  +8.69898206790e-01-j3.61840215069e-01
  +8.16267583353e-01-j4.08207469099e-01
  +7.49478767466e-01-j4.50617165267e-01
  +6.70213265570e-01-j4.84463895424e-01
  +5.81342849230e-01-j5.05220229859e-01
  +4.87840585869e-01-j5.09713722565e-01
  +3.95819565148e-01-j4.97216640211e-01
  +3.11019415519e-01-j4.69716588699e-01
  +2.37479194805e-01-j4.31195246981e-01
  +1.76989132828e-01-j3.86362527696e-01
  +1.29361138691e-01-j3.39509731416e-01
  +9.31346058286e-02-j2.93872859017e-01
  +6.62981855792e-02-j2.51506978757e-01
  +4.68042732213e-02-j2.13468551499e-01
  +3.28449137286e-02-j1.80101165273e-01
  +2.29507854158e-02-j1.51302446247e-01
  +1.59888874025e-02-j1.26726266838e-01
  +1.11152802306e-02-j1.05917766355e-01
  +7.71579609562e-03-j8.83952929327e-02
  +5.35049450146e-03-j7.36957290172e-02
  +3.70762888758e-03-j6.13966470687e-02
  +2.56792786579e-03-j5.11247523554e-02
  +1.77795088061e-03-j4.25567207750e-02
  +1.23070231107e-03-j3.54161553050e-02
  +8.51754554104e-04-j2.94688278404e-02
  +5.89421799882e-04-j2.45174101028e-02
  +4.07852857456e-04-j2.03963242082e-02
</dep>
<dep Pr2.i acfrequency>
  +1.02041470654e-03+j1.30841903428e-06
  +1.02041762107e-03+j1.57304814715e-06
  +1.02042183373e-03+j1.89118939001e-06
  +1.02042792265e-03+j2.27365682662e-06
  +1.02043672330e-03+j2.73344478672e-06
  +1.02044944307e-03+j3.28616366917e-06
  +1.02046782654e-03+j3.95056006967e-06
  +1.02049439417e-03+j4.74913547525e-06
  +1.02053278655e-03+j5.70887858172e-06
  +1.02058826051e-03+j6.86212576023e-06
  +1.02066840319e-03+j8.24756096023e-06
  +1.02078415782e-03+j9.91135797895e-06
  +1.02095129309e-03+j1.19084503625e-05
  +1.02119249946e-03+j1.43038800784e-05
  +1.02154036216e-03+j1.71741135388e-05
  +1.02204154019e-03+j2.06081030522e-05
  +1.02276256416e-03+j2.47076828204e-05
  +1.02379772160e-03+j2.95865764781e-05
  +1.02527945529e-03+j3.53668001325e-05
  +1.02739140881e-03+j4.21705160733e-05
  +1.03038343043e-03+j5.01044315189e-05
  +1.03458603403e-03+j5.92328481980e-05
  +1.04041842561e-03+j6.95351482935e-05
  +1.04837891580e-03+j8.08454818218e-05
  +1.05900045980e-03+j9.27795423253e-05
  +1.07275190170e-03+j1.04668581820e-04
  +1.08987723911e-03+j1.15542862889e-04
  +1.11020172678e-03+j1.24221511647e-04
  +1.13298901302e-03+j1.29543648682e-04
  +1.15696395234e-03+j1.30695826299e-04
  +1.18055908586e-03+j1.27491446208e-04
  +1.20230271397e-03+j1.20440150949e-04
  +1.22115918082e-03+j1.10562883841e-04
  +1.23666945312e-03+j9.90673147938e-05
  +1.24888175931e-03+j8.70537772861e-05
  +1.25817061389e-03+j7.53520151327e-05
  +1.26505174729e-03+j6.44889689121e-05
  +1.27005018635e-03+j5.47355260253e-05
  +1.27362950930e-03+j4.61797859674e-05
  +1.27616646528e-03+j3.87954990378e-05
  +1.27795156733e-03+j3.24939145738e-05
  +1.27920121020e-03+j2.71584016295e-05
  +1.28007287280e-03+j2.26654597263e-05
  +1.28067936038e-03+j1.88963407736e-05
  +1.28110060798e-03+j1.57427300176e-05
  +1.28139283901e-03+j1.31089108604e-05
  +1.28159539721e-03+j1.09119796859e-05
  +1.28173571736e-03+j9.08106546282e-06
  +1.28183288345e-03+j7.55610970266e-06
  +1.28190014826e-03+j6.28651541097e-06
  +1.28194670440e-03+j5.22982672005e-06
</dep>
<dep V2.i acfrequency>
  -1.02041470654e-03-j1.30841903428e-06
  -1.02041762107e-03-j1.57304814715e-06
  -1.02042183373e-03-j1.89118939001e-06
  -1.02042792265e-03-j2.27365682662e-06
  -1.02043672330e-03-j2.73344478672e-06
  -1.02044944307e-03-j3.28616366917e-06
  -1.02046782654e-03-j3.95056006967e-06
  -1.02049439417e-03-j4.74913547525e-06
  -1.02053278655e-03-j5.70887858172e-06
  -1.02058826051e-03-j6.86212576023e-06
  -1.02066840319e-03-j8.24756096023e-06
  -1.02078415782e-03-j9.91135797895e-06
  -1.02095129309e-03-j1.19084503625e-05
  -1.02119249946e-03-j1.43038800784e-05
  -1.02154036216e-03-j1.71741135388e-05
  -1.02204154019e-03-j2.06081030522e-05
  -1.02276256416e-03-j2.47076828204e-05
  -1.02379772160e-03-j2.95865764781e-05
  -1.02527945529e-03-j3.53668001325e-05
  -1.02739140881e-03-j4.21705160733e-05
  -1.03038343043e-03-j5.01044315189e-05
  -1.03458603403e-03-j5.92328481980e-05
  -1.04041842561e-03-j6.95351482935e-05
  -1.04837891580e-03-j8.08454818218e-05
  -1.05900045980e-03-j9.27795423253e-05
  -1.07275190170e-03-j1.04668581820e-04
  -1.08987723911e-03-j1.15542862889e-04
  -1.11020172678e-03-j1.24221511647e-04
  -1.13298901302e-03-j1.29543648682e-04
  -1.15696395234e-03-j1.30695826299e-04
  -1.18055908586e-03-j1.27491446208e-04
  -1.20230271397e-03-j1.20440150949e-04
  -1.22115918082e-03-j1.10562883841e-04
  -1.23666945312e-03-j9.90673147938e-05
  -1.24888175931e-03-j8.70537772861e-05
  -1.25817061389e-03-j7.53520151327e-05
  -1.26505174729e-03-j6.44889689121e-05
  -1.27005018635e-03-j5.47355260253e-05
  -1.27362950930e-03-j4.61797859674e-05
  -1.27616646528e-03-j3.87954990378e-05
  -1.27795156733e-03-j3.24939145738e-05
  -1.27920121020e-03-j2.71584016295e-05
  -1.28007287280e-03-j2.26654597263e-05
  -1.28067936038e-03-j1.88963407736e-05
  -1.28110060798e-03-j1.57427300176e-05
  -1.28139283901e-03-j1.31089108604e-05
  -1.28159539721e-03-j1.09119796859e-05
  -1.28173571736e-03-j9.08106546282e-06
  -1.28183288345e-03-j7.55610970266e-06
  -1.28190014826e-03-j6.28651541097e-06
  -1.28194670440e-03-j5.22982672005e-06
</dep>
<dep V3.i acfrequency>
  -1.02041470654e-03-j1.30841903428e-06
  -1.02041762107e-03-j1.57304814715e-06
  -1.02042183373e-03-j1.89118939001e-06
  -1.02042792265e-03-j2.27365682662e-06
  -1.02043672330e-03-j2.73344478672e-06
  -1.02044944307e-03-j3.28616366917e-06
  -1.02046782654e-03-j3.95056006967e-06
  -1.02049439417e-03-j4.74913547525e-06
  -1.02053278655e-03-j5.70887858172e-06
  -1.02058826051e-03-j6.86212576023e-06
  -1.02066840319e-03-j8.24756096023e-06
  -1.02078415782e-03-j9.91135797895e-06
  -1.02095129309e-03-j1.19084503625e-05
  -1.02119249946e-03-j1.43038800784e-05
  -1.02154036216e-03-j1.71741135388e-05
  -1.02204154019e-03-j2.06081030522e-05
  -1.02276256416e-03-j2.47076828204e-05
  -1.02379772160e-03-j2.95865764781e-05
  -1.02527945529e-03-j3.53668001325e-05
  -1.02739140881e-03-j4.21705160733e-05
  -1.03038343043e-03-j5.01044315189e-05
  -1.03458603403e-03-j5.92328481980e-05
  -1.04041842561e-03-j6.95351482935e-05
  -1.04837891580e-03-j8.08454818218e-05
  -1.05900045980e-03-j9.27795423253e-05
  -1.07275190170e-03-j1.04668581820e-04
  -1.08987723911e-03-j1.15542862889e-04
  -1.11020172678e-03-j1.24221511647e-04
  -1.13298901302e-03-j1.29543648682e-04
  -1.15696395234e-03-j1.30695826299e-04
  -1.18055908586e-03-j1.27491446208e-04
  -1.20230271397e-03-j1.20440150949e-04
  -1.22115918082e-03-j1.10562883841e-04
  -1.23666945312e-03-j9.90673147938e-05
  -1.24888175931e-03-j8.70537772861e-05
  -1.25817061389e-03-j7.53520151327e-05
  -1.26505174729e-03-j6.44889689121e-05
  -1.27005018635e-03-j5.47355260253e-05
  -1.27362950930e-03-j4.61797859674e-05
  -1.27616646528e-03-j3.87954990378e-05
  -1.27795156733e-03-j3.24939145738e-05
  -1.27920121020e-03-j2.71584016295e-05
  -1.28007287280e-03-j2.26654597263e-05
  -1.28067936038e-03-j1.88963407736e-05
  -1.28110060798e-03-j1.57427300176e-05
  -1.28139283901e-03-j1.31089108604e-05
  -1.28159539721e-03-j1.09119796859e-05
  -1.28173571736e-03-j9.08106546282e-06
  -1.28183288345e-03-j7.55610970266e-06
  -1.28190014826e-03-j6.28651541097e-06
  -1.28194670440e-03-j5.22982672005e-06
</dep>
<dep Vbat.v acfrequency>
  +5.00000000000e+00
  +5.00000000000e+00
  +5.00000000000e+00
  +5.00000000000e+00
  +5.00000000000e+00
  +5.00000000000e+00
  +5.00000000000e+00
  +5.00000000000e+00
  +5.00000000000e+00
  +5.00000000000e+00
  +5.00000000000e+00
  +5.00000000000e+00
  +5.00000000000e+00
  +5.00000000000e+00
  +5.00000000000e+00
  +5.00000000000e+00
  +5.00000000000e+00
  +5.00000000000e+00
  +5.00000000000e+00
  +5.00000000000e+00
  +5.00000000000e+00
  +5.00000000000e+00
  +5.00000000000e+00
  +5.00000000000e+00
  +5.00000000000e+00
  +5.00000000000e+00
  +5.00000000000e+00
  +5.00000000000e+00
  +5.00000000000e+00
  +5.00000000000e+00
  +5.00000000000e+00
  +5.00000000000e+00
  +5.00000000000e+00
  +5.00000000000e+00
  +5.00000000000e+00
  +5.00000000000e+00
  +5.00000000000e+00
  +5.00000000000e+00
  +5.00000000000e+00
  +5.00000000000e+00
  +5.00000000000e+00
  +5.00000000000e+00
  +5.00000000000e+00
  +5.00000000000e+00
  +5.00000000000e+00
  +5.00000000000e+00
  +5.00000000000e+00
  +5.00000000000e+00
  +5.00000000000e+00
  +5.00000000000e+00
  +5.00000000000e+00
</dep>
<dep _net1.v acfrequency>
  +0.00000000000e+00
  +0.00000000000e+00
  +0.00000000000e+00
  +0.00000000000e+00
  +0.00000000000e+00
  +0.00000000000e+00
  +0.00000000000e+00
  +0.00000000000e+00
  +0.00000000000e+00
  +0.00000000000e+00
  +0.00000000000e+00
  +0.00000000000e+00
  +0.00000000000e+00
  +0.00000000000e+00
  +0.00000000000e+00
  +0.00000000000e+00
  +0.00000000000e+00
  +0.00000000000e+00
  +0.00000000000e+00
  +0.00000000000e+00
  +0.00000000000e+00
  +0.00000000000e+00
  +0.00000000000e+00
  +0.00000000000e+00
  +0.00000000000e+00
  +0.00000000000e+00
  +0.00000000000e+00
  +0.00000000000e+00
  +0.00000000000e+00
  +0.00000000000e+00
  +0.00000000000e+00
  +0.00000000000e+00
  +0.00000000000e+00
  +0.00000000000e+00
  +0.00000000000e+00
  +0.00000000000e+00
  +0.00000000000e+00
  +0.00000000000e+00
  +0.00000000000e+00
  +0.00000000000e+00
  +0.00000000000e+00
  +0.00000000000e+00
  +0.00000000000e+00
  +0.00000000000e+00
  +0.00000000000e+00
  +0.00000000000e+00
  +0.00000000000e+00
  +0.00000000000e+00
  +0.00000000000e+00
  +0.00000000000e+00
  +0.00000000000e+00
</dep>
<dep _net0.v acfrequency>
  +5.00000000000e+00
  +5.00000000000e+00
  +5.00000000000e+00
  +5.00000000000e+00
  +5.00000000000e+00
  +5.00000000000e+00
  +5.00000000000e+00
  +5.00000000000e+00
  +5.00000000000e+00
  +5.00000000000e+00
  +5.00000000000e+00
  +5.00000000000e+00
  +5.00000000000e+00
  +5.00000000000e+00
  +5.00000000000e+00
  +5.00000000000e+00
  +5.00000000000e+00
  +5.00000000000e+00
  +5.00000000000e+00
  +5.00000000000e+00
  +5.00000000000e+00
  +5.00000000000e+00
  +5.00000000000e+00
  +5.00000000000e+00
  +5.00000000000e+00
  +5.00000000000e+00
  +5.00000000000e+00
  +5.00000000000e+00
  +5.00000000000e+00
  +5.00000000000e+00
  +5.00000000000e+00
  +5.00000000000e+00
  +5.00000000000e+00
  +5.00000000000e+00
  +5.00000000000e+00
  +5.00000000000e+00
  +5.00000000000e+00
  +5.00000000000e+00
  +5.00000000000e+00
  +5.00000000000e+00
  +5.00000000000e+00
  +5.00000000000e+00
  +5.00000000000e+00
  +5.00000000000e+00
  +5.00000000000e+00
  +5.00000000000e+00
  +5.00000000000e+00
  +5.00000000000e+00
  +5.00000000000e+00
  +5.00000000000e+00
  +5.00000000000e+00
</dep>
<dep Vadc.v acfrequency>
  +1.02038264449e+00-j5.10283423370e-03
  +1.02037127782e+00-j6.13488777389e-03
  +1.02035484843e+00-j7.37563862105e-03
  +1.02033110168e+00-j8.86726162380e-03
  +1.02029677914e+00-j1.06604346682e-02
  +1.02024717204e+00-j1.28160383097e-02
  +1.02017547650e+00-j1.54071842717e-02
  +1.02007186273e+00-j1.85216283535e-02
  +1.01992213244e+00-j2.22646264687e-02
  +1.01970578401e+00-j2.67622904649e-02
  +1.01939322754e+00-j3.21654877449e-02
  +1.01894178449e+00-j3.86542961179e-02
  +1.01828995697e+00-j4.64429564137e-02
  +1.01734925210e+00-j5.57851323058e-02
  +1.01599258757e+00-j6.69790428012e-02
  +1.01403799328e+00-j8.03716019036e-02
  +1.01122599976e+00-j9.63599629995e-02
  +1.00718888577e+00-j1.15387648264e-01
  +1.00141012437e+00-j1.37930520517e-01
  +9.93173505630e-01-j1.64465012686e-01
  +9.81504621304e-01-j1.95407282924e-01
  +9.65114467275e-01-j2.31008107972e-01
  +9.42368140125e-01-j2.71187078345e-01
  +9.11322228372e-01-j3.15297379105e-01
  +8.69898206790e-01-j3.61840215069e-01
  +8.16267583353e-01-j4.08207469099e-01
  +7.49478767466e-01-j4.50617165267e-01
  +6.70213265570e-01-j4.84463895424e-01
  +5.81342849230e-01-j5.05220229859e-01
  +4.87840585869e-01-j5.09713722565e-01
  +3.95819565148e-01-j4.97216640211e-01
  +3.11019415519e-01-j4.69716588699e-01
  +2.37479194805e-01-j4.31195246981e-01
  +1.76989132828e-01-j3.86362527696e-01
  +1.29361138691e-01-j3.39509731416e-01
  +9.31346058286e-02-j2.93872859017e-01
  +6.62981855792e-02-j2.51506978757e-01
  +4.68042732213e-02-j2.13468551499e-01
  +3.28449137286e-02-j1.80101165273e-01
  +2.29507854158e-02-j1.51302446247e-01
  +1.59888874025e-02-j1.26726266838e-01
  +1.11152802306e-02-j1.05917766355e-01
  +7.71579609562e-03-j8.83952929327e-02
  +5.35049450146e-03-j7.36957290172e-02
  +3.70762888758e-03-j6.13966470687e-02
  +2.56792786579e-03-j5.11247523554e-02
  +1.77795088061e-03-j4.25567207750e-02
  +1.23070231107e-03-j3.54161553050e-02
  +8.51754554104e-04-j2.94688278404e-02
  +5.89421799882e-04-j2.45174101028e-02
  +4.07852857456e-04-j2.03963242082e-02
</dep>
<indep Pr1.V 1>
  +2.85714285714e+00
</indep>
<indep Pr2.I 1>
  +2.85714285714e-03
</indep>
<indep V2.I 1>
  -2.85714285714e-03
</indep>
<indep V3.I 1>
  -2.85714285714e-03
</indep>
<indep Vbat.V 1>
  +1.40000000000e+01
</indep>
<indep _net1.V 1>
  +1.40000000000e+01
</indep>
<indep _net0.V 1>
  +1.40000000000e+01
</indep>
<indep Vadc.V 1>
  +2.85714285714e+00
</indep>
