<Qucs Dataset 0.0.18>
<indep acfrequency 501>
  -nan
  -nan
  -nan
  -nan
  -nan
  -nan
  -nan
  -nan
  -nan
  -nan
  -nan
  -nan
  -nan
  -nan
  -nan
  -nan
  -nan
  -nan
  -nan
  -nan
  -nan
  -nan
  -nan
  -nan
  -nan
  -nan
  -nan
  -nan
  -nan
  -nan
  -nan
  -nan
  -nan
  -nan
  -nan
  -nan
  -nan
  -nan
  -nan
  -nan
  -nan
  -nan
  -nan
  -nan
  -nan
  -nan
  -nan
  -nan
  -nan
  -nan
  -nan
  -nan
  -nan
  -nan
  -nan
  -nan
  -nan
  -nan
  -nan
  -nan
  -nan
  -nan
  -nan
  -nan
  -nan
  -nan
  -nan
  -nan
  -nan
  -nan
  -nan
  -nan
  -nan
  -nan
  -nan
  -nan
  -nan
  -nan
  -nan
  -nan
  -nan
  -nan
  -nan
  -nan
  -nan
  -nan
  -nan
  -nan
  -nan
  -nan
  -nan
  -nan
  -nan
  -nan
  -nan
  -nan
  -nan
  -nan
  -nan
  -nan
  -nan
  -nan
  -nan
  -nan
  -nan
  -nan
  -nan
  -nan
  -nan
  -nan
  -nan
  -nan
  -nan
  -nan
  -nan
  -nan
  -nan
  -nan
  -nan
  -nan
  -nan
  -nan
  -nan
  -nan
  -nan
  -nan
  -nan
  -nan
  -nan
  -nan
  -nan
  -nan
  -nan
  -nan
  -nan
  -nan
  -nan
  -nan
  -nan
  -nan
  -nan
  -nan
  -nan
  -nan
  -nan
  -nan
  -nan
  -nan
  -nan
  -nan
  -nan
  -nan
  -nan
  -nan
  -nan
  -nan
  -nan
  -nan
  -nan
  -nan
  -nan
  -nan
  -nan
  -nan
  -nan
  -nan
  -nan
  -nan
  -nan
  -nan
  -nan
  -nan
  -nan
  -nan
  -nan
  -nan
  -nan
  -nan
  -nan
  -nan
  -nan
  -nan
  -nan
  -nan
  -nan
  -nan
  -nan
  -nan
  -nan
  -nan
  -nan
  -nan
  -nan
  -nan
  -nan
  -nan
  -nan
  -nan
  -nan
  -nan
  -nan
  -nan
  -nan
  -nan
  -nan
  -nan
  -nan
  -nan
  -nan
  -nan
  -nan
  -nan
  -nan
  -nan
  -nan
  -nan
  -nan
  -nan
  -nan
  -nan
  -nan
  -nan
  -nan
  -nan
  -nan
  -nan
  -nan
  -nan
  -nan
  -nan
  -nan
  -nan
  -nan
  -nan
  -nan
  -nan
  -nan
  -nan
  -nan
  -nan
  -nan
  -nan
  -nan
  -nan
  -nan
  -nan
  -nan
  -nan
  -nan
  -nan
  -nan
  -nan
  -nan
  -nan
  -nan
  -nan
  -nan
  -nan
  -nan
  -nan
  -nan
  -nan
  -nan
  -nan
  -nan
  -nan
  -nan
  -nan
  -nan
  -nan
  -nan
  -nan
  -nan
  -nan
  -nan
  -nan
  -nan
  -nan
  -nan
  -nan
  -nan
  -nan
  -nan
  -nan
  -nan
  -nan
  -nan
  -nan
  -nan
  -nan
  -nan
  -nan
  -nan
  -nan
  -nan
  -nan
  -nan
  -nan
  -nan
  -nan
  -nan
  -nan
  -nan
  -nan
  -nan
  -nan
  -nan
  -nan
  -nan
  -nan
  -nan
  -nan
  -nan
  -nan
  -nan
  -nan
  -nan
  -nan
  -nan
  -nan
  -nan
  -nan
  -nan
  -nan
  -nan
  -nan
  -nan
  -nan
  -nan
  -nan
  -nan
  -nan
  -nan
  -nan
  -nan
  -nan
  -nan
  -nan
  -nan
  -nan
  -nan
  -nan
  -nan
  -nan
  -nan
  -nan
  -nan
  -nan
  -nan
  -nan
  -nan
  -nan
  -nan
  -nan
  -nan
  -nan
  -nan
  -nan
  -nan
  -nan
  -nan
  -nan
  -nan
  -nan
  -nan
  -nan
  -nan
  -nan
  -nan
  -nan
  -nan
  -nan
  -nan
  -nan
  -nan
  -nan
  -nan
  -nan
  -nan
  -nan
  -nan
  -nan
  -nan
  -nan
  -nan
  -nan
  -nan
  -nan
  -nan
  -nan
  -nan
  -nan
  -nan
  -nan
  -nan
  -nan
  -nan
  -nan
  -nan
  -nan
  -nan
  -nan
  -nan
  -nan
  -nan
  -nan
  -nan
  -nan
  -nan
  -nan
  -nan
  -nan
  -nan
  -nan
  -nan
  -nan
  -nan
  -nan
  -nan
  -nan
  -nan
  -nan
  -nan
  -nan
  -nan
  -nan
  -nan
  -nan
  -nan
  -nan
  -nan
  -nan
  -nan
  -nan
  -nan
  -nan
  -nan
  -nan
  -nan
  -nan
  -nan
  -nan
  -nan
  -nan
  -nan
  -nan
  -nan
  -nan
  -nan
  -nan
  -nan
  -nan
  -nan
  -nan
  -nan
  -nan
  -nan
  -nan
  -nan
  -nan
  -nan
  -nan
  -nan
  -nan
  -nan
  -nan
  -nan
  -nan
  -nan
  -nan
  -nan
  -nan
  -nan
  -nan
  -nan
  -nan
  -nan
  -nan
  -nan
  -nan
  -nan
  -nan
  -nan
  -nan
  -nan
  -nan
  -nan
  -nan
  -nan
  -nan
  -nan
  -nan
  -nan
  -nan
  -nan
  -nan
  -nan
  -nan
  -nan
  -nan
  -nan
</indep>
<indep Vin 50>
  +9.00000000000e+00
  +9.42857142857e+00
  +9.85714285714e+00
  +1.02857142857e+01
  +1.07142857143e+01
  +1.11428571429e+01
  +1.15714285714e+01
  +1.20000000000e+01
  +1.24285714286e+01
  +1.28571428571e+01
  +1.32857142857e+01
  +1.37142857143e+01
  +1.41428571429e+01
  +1.45714285714e+01
  +1.50000000000e+01
  +1.54285714286e+01
  +1.58571428571e+01
  +1.62857142857e+01
  +1.67142857143e+01
  +1.71428571429e+01
  +1.75714285714e+01
  +1.80000000000e+01
  +1.84285714286e+01
  +1.88571428571e+01
  +1.92857142857e+01
  +1.97142857143e+01
  +2.01428571429e+01
  +2.05714285714e+01
  +2.10000000000e+01
  +2.14285714286e+01
  +2.18571428571e+01
  +2.22857142857e+01
  +2.27142857143e+01
  +2.31428571429e+01
  +2.35714285714e+01
  +2.40000000000e+01
  +2.44285714286e+01
  +2.48571428571e+01
  +2.52857142857e+01
  +2.57142857143e+01
  +2.61428571429e+01
  +2.65714285714e+01
  +2.70000000000e+01
  +2.74285714286e+01
  +2.78571428571e+01
  +2.82857142857e+01
  +2.87142857143e+01
  +2.91428571429e+01
  +2.95714285714e+01
  +3.00000000000e+01
</indep>
<dep adc Vin>
  +5.69944341372e+02
  +5.97084548104e+02
  +6.24224754836e+02
  +6.51364961568e+02
  +6.78505168300e+02
  +7.05645375032e+02
  +7.32785581764e+02
  +7.59925788496e+02
  +7.87065995228e+02
  +8.14206201960e+02
  +8.41346408692e+02
  +8.68486615424e+02
  +8.95626822156e+02
  +9.22767028888e+02
  +9.49907235621e+02
  +9.77047442353e+02
  +1.00418764908e+03
  +1.03132785582e+03
  +1.05846806252e+03
  +1.08560826835e+03
  +1.11274844861e+03
  +1.13988787524e+03
  +1.16700516345e+03
  +1.19352223522e+03
  +1.21350220033e+03
  +1.22298589791e+03
  +1.22800219328e+03
  +1.23126429280e+03
  +1.23365018528e+03
  +1.23552083636e+03
  +1.23705506907e+03
  +1.23835340383e+03
  +1.23947760972e+03
  +1.24046822156e+03
  +1.24135321278e+03
  +1.24215267050e+03
  +1.24288148983e+03
  +1.24355101252e+03
  +1.24417006878e+03
  +1.24474566465e+03
  +1.24528345005e+03
  +1.24578804616e+03
  +1.24626328001e+03
  +1.24671235594e+03
  +1.24713798325e+03
  +1.24754247290e+03
  +1.24792781166e+03
  +1.24829571991e+03
  +1.24864769706e+03
  +1.24898505773e+03
</dep>
<dep Pr1.v acfrequency>
  -nan-jnan
  -nan-jnan
  -nan-jnan
  -nan-jnan
  -nan-jnan
  -nan-jnan
  -nan-jnan
  -nan-jnan
  -nan-jnan
  -nan-jnan
  -nan-jnan
  -nan-jnan
  -nan-jnan
  -nan-jnan
  -nan-jnan
  -nan-jnan
  -nan-jnan
  -nan-jnan
  -nan-jnan
  -nan-jnan
  -nan-jnan
  -nan-jnan
  -nan-jnan
  -nan-jnan
  -nan-jnan
  -nan-jnan
  -nan-jnan
  -nan-jnan
  -nan-jnan
  -nan-jnan
  -nan-jnan
  -nan-jnan
  -nan-jnan
  -nan-jnan
  -nan-jnan
  -nan-jnan
  -nan-jnan
  -nan-jnan
  -nan-jnan
  -nan-jnan
  -nan-jnan
  -nan-jnan
  -nan-jnan
  -nan-jnan
  -nan-jnan
  -nan-jnan
  -nan-jnan
  -nan-jnan
  -nan-jnan
  -nan-jnan
  -nan-jnan
  -nan-jnan
  -nan-jnan
  -nan-jnan
  -nan-jnan
  -nan-jnan
  -nan-jnan
  -nan-jnan
  -nan-jnan
  -nan-jnan
  -nan-jnan
  -nan-jnan
  -nan-jnan
  -nan-jnan
  -nan-jnan
  -nan-jnan
  -nan-jnan
  -nan-jnan
  -nan-jnan
  -nan-jnan
  -nan-jnan
  -nan-jnan
  -nan-jnan
  -nan-jnan
  -nan-jnan
  -nan-jnan
  -nan-jnan
  -nan-jnan
  -nan-jnan
  -nan-jnan
  -nan-jnan
  -nan-jnan
  -nan-jnan
  -nan-jnan
  -nan-jnan
  -nan-jnan
  -nan-jnan
  -nan-jnan
  -nan-jnan
  -nan-jnan
  -nan-jnan
  -nan-jnan
  -nan-jnan
  -nan-jnan
  -nan-jnan
  -nan-jnan
  -nan-jnan
  -nan-jnan
  -nan-jnan
  -nan-jnan
  -nan-jnan
  -nan-jnan
  -nan-jnan
  -nan-jnan
  -nan-jnan
  -nan-jnan
  -nan-jnan
  -nan-jnan
  -nan-jnan
  -nan-jnan
  -nan-jnan
  -nan-jnan
  -nan-jnan
  -nan-jnan
  -nan-jnan
  -nan-jnan
  -nan-jnan
  -nan-jnan
  -nan-jnan
  -nan-jnan
  -nan-jnan
  -nan-jnan
  -nan-jnan
  -nan-jnan
  -nan-jnan
  -nan-jnan
  -nan-jnan
  -nan-jnan
  -nan-jnan
  -nan-jnan
  -nan-jnan
  -nan-jnan
  -nan-jnan
  -nan-jnan
  -nan-jnan
  -nan-jnan
  -nan-jnan
  -nan-jnan
  -nan-jnan
  -nan-jnan
  -nan-jnan
  -nan-jnan
  -nan-jnan
  -nan-jnan
  -nan-jnan
  -nan-jnan
  -nan-jnan
  -nan-jnan
  -nan-jnan
  -nan-jnan
  -nan-jnan
  -nan-jnan
  -nan-jnan
  -nan-jnan
  -nan-jnan
  -nan-jnan
  -nan-jnan
  -nan-jnan
  -nan-jnan
  -nan-jnan
  -nan-jnan
  -nan-jnan
  -nan-jnan
  -nan-jnan
  -nan-jnan
  -nan-jnan
  -nan-jnan
  -nan-jnan
  -nan-jnan
  -nan-jnan
  -nan-jnan
  -nan-jnan
  -nan-jnan
  -nan-jnan
  -nan-jnan
  -nan-jnan
  -nan-jnan
  -nan-jnan
  -nan-jnan
  -nan-jnan
  -nan-jnan
  -nan-jnan
  -nan-jnan
  -nan-jnan
  -nan-jnan
  -nan-jnan
  -nan-jnan
  -nan-jnan
  -nan-jnan
  -nan-jnan
  -nan-jnan
  -nan-jnan
  -nan-jnan
  -nan-jnan
  -nan-jnan
  -nan-jnan
  -nan-jnan
  -nan-jnan
  -nan-jnan
  -nan-jnan
  -nan-jnan
  -nan-jnan
  -nan-jnan
  -nan-jnan
  -nan-jnan
  -nan-jnan
  -nan-jnan
  -nan-jnan
  -nan-jnan
  -nan-jnan
  -nan-jnan
  -nan-jnan
  -nan-jnan
  -nan-jnan
  -nan-jnan
  -nan-jnan
  -nan-jnan
  -nan-jnan
  -nan-jnan
  -nan-jnan
  -nan-jnan
  -nan-jnan
  -nan-jnan
  -nan-jnan
  -nan-jnan
  -nan-jnan
  -nan-jnan
  -nan-jnan
  -nan-jnan
  -nan-jnan
  -nan-jnan
  -nan-jnan
  -nan-jnan
  -nan-jnan
  -nan-jnan
  -nan-jnan
  -nan-jnan
  -nan-jnan
  -nan-jnan
  -nan-jnan
  -nan-jnan
  -nan-jnan
  -nan-jnan
  -nan-jnan
  -nan-jnan
  -nan-jnan
  -nan-jnan
  -nan-jnan
  -nan-jnan
  -nan-jnan
  -nan-jnan
  -nan-jnan
  -nan-jnan
  -nan-jnan
  -nan-jnan
  -nan-jnan
  -nan-jnan
  -nan-jnan
  -nan-jnan
  -nan-jnan
  -nan-jnan
  -nan-jnan
  -nan-jnan
  -nan-jnan
  -nan-jnan
  -nan-jnan
  -nan-jnan
  -nan-jnan
  -nan-jnan
  -nan-jnan
  -nan-jnan
  -nan-jnan
  -nan-jnan
  -nan-jnan
  -nan-jnan
  -nan-jnan
  -nan-jnan
  -nan-jnan
  -nan-jnan
  -nan-jnan
  -nan-jnan
  -nan-jnan
  -nan-jnan
  -nan-jnan
  -nan-jnan
  -nan-jnan
  -nan-jnan
  -nan-jnan
  -nan-jnan
  -nan-jnan
  -nan-jnan
  -nan-jnan
  -nan-jnan
  -nan-jnan
  -nan-jnan
  -nan-jnan
  -nan-jnan
  -nan-jnan
  -nan-jnan
  -nan-jnan
  -nan-jnan
  -nan-jnan
  -nan-jnan
  -nan-jnan
  -nan-jnan
  -nan-jnan
  -nan-jnan
  -nan-jnan
  -nan-jnan
  -nan-jnan
  -nan-jnan
  -nan-jnan
  -nan-jnan
  -nan-jnan
  -nan-jnan
  -nan-jnan
  -nan-jnan
  -nan-jnan
  -nan-jnan
  -nan-jnan
  -nan-jnan
  -nan-jnan
  -nan-jnan
  -nan-jnan
  -nan-jnan
  -nan-jnan
  -nan-jnan
  -nan-jnan
  -nan-jnan
  -nan-jnan
  -nan-jnan
  -nan-jnan
  -nan-jnan
  -nan-jnan
  -nan-jnan
  -nan-jnan
  -nan-jnan
  -nan-jnan
  -nan-jnan
  -nan-jnan
  -nan-jnan
  -nan-jnan
  -nan-jnan
  -nan-jnan
  -nan-jnan
  -nan-jnan
  -nan-jnan
  -nan-jnan
  -nan-jnan
  -nan-jnan
  -nan-jnan
  -nan-jnan
  -nan-jnan
  -nan-jnan
  -nan-jnan
  -nan-jnan
  -nan-jnan
  -nan-jnan
  -nan-jnan
  -nan-jnan
  -nan-jnan
  -nan-jnan
  -nan-jnan
  -nan-jnan
  -nan-jnan
  -nan-jnan
  -nan-jnan
  -nan-jnan
  -nan-jnan
  -nan-jnan
  -nan-jnan
  -nan-jnan
  -nan-jnan
  -nan-jnan
  -nan-jnan
  -nan-jnan
  -nan-jnan
  -nan-jnan
  -nan-jnan
  -nan-jnan
  -nan-jnan
  -nan-jnan
  -nan-jnan
  -nan-jnan
  -nan-jnan
  -nan-jnan
  -nan-jnan
  -nan-jnan
  -nan-jnan
  -nan-jnan
  -nan-jnan
  -nan-jnan
  -nan-jnan
  -nan-jnan
  -nan-jnan
  -nan-jnan
  -nan-jnan
  -nan-jnan
  -nan-jnan
  -nan-jnan
  -nan-jnan
  -nan-jnan
  -nan-jnan
  -nan-jnan
  -nan-jnan
  -nan-jnan
  -nan-jnan
  -nan-jnan
  -nan-jnan
  -nan-jnan
  -nan-jnan
  -nan-jnan
  -nan-jnan
  -nan-jnan
  -nan-jnan
  -nan-jnan
  -nan-jnan
  -nan-jnan
  -nan-jnan
  -nan-jnan
  -nan-jnan
  -nan-jnan
  -nan-jnan
  -nan-jnan
  -nan-jnan
  -nan-jnan
  -nan-jnan
  -nan-jnan
  -nan-jnan
  -nan-jnan
  -nan-jnan
  -nan-jnan
  -nan-jnan
  -nan-jnan
  -nan-jnan
  -nan-jnan
  -nan-jnan
  -nan-jnan
  -nan-jnan
  -nan-jnan
  -nan-jnan
  -nan-jnan
  -nan-jnan
  -nan-jnan
  -nan-jnan
  -nan-jnan
  -nan-jnan
  -nan-jnan
  -nan-jnan
  -nan-jnan
  -nan-jnan
  -nan-jnan
  -nan-jnan
  -nan-jnan
  -nan-jnan
  -nan-jnan
  -nan-jnan
  -nan-jnan
  -nan-jnan
  -nan-jnan
  -nan-jnan
  -nan-jnan
  -nan-jnan
  -nan-jnan
  -nan-jnan
  -nan-jnan
  -nan-jnan
  -nan-jnan
  -nan-jnan
  -nan-jnan
  -nan-jnan
  -nan-jnan
  -nan-jnan
  -nan-jnan
  -nan-jnan
  -nan-jnan
  -nan-jnan
  -nan-jnan
  -nan-jnan
  -nan-jnan
  -nan-jnan
  -nan-jnan
  -nan-jnan
  -nan-jnan
  -nan-jnan
  -nan-jnan
  -nan-jnan
  -nan-jnan
  -nan-jnan
  -nan-jnan
  -nan-jnan
  -nan-jnan
  -nan-jnan
  -nan-jnan
  -nan-jnan
  -nan-jnan
  -nan-jnan
  -nan-jnan
  -nan-jnan
  -nan-jnan
  -nan-jnan
</dep>
<dep V2.i acfrequency>
  -nan-jnan
  -nan-jnan
  -nan-jnan
  -nan-jnan
  -nan-jnan
  -nan-jnan
  -nan-jnan
  -nan-jnan
  -nan-jnan
  -nan-jnan
  -nan-jnan
  -nan-jnan
  -nan-jnan
  -nan-jnan
  -nan-jnan
  -nan-jnan
  -nan-jnan
  -nan-jnan
  -nan-jnan
  -nan-jnan
  -nan-jnan
  -nan-jnan
  -nan-jnan
  -nan-jnan
  -nan-jnan
  -nan-jnan
  -nan-jnan
  -nan-jnan
  -nan-jnan
  -nan-jnan
  -nan-jnan
  -nan-jnan
  -nan-jnan
  -nan-jnan
  -nan-jnan
  -nan-jnan
  -nan-jnan
  -nan-jnan
  -nan-jnan
  -nan-jnan
  -nan-jnan
  -nan-jnan
  -nan-jnan
  -nan-jnan
  -nan-jnan
  -nan-jnan
  -nan-jnan
  -nan-jnan
  -nan-jnan
  -nan-jnan
  -nan-jnan
  -nan-jnan
  -nan-jnan
  -nan-jnan
  -nan-jnan
  -nan-jnan
  -nan-jnan
  -nan-jnan
  -nan-jnan
  -nan-jnan
  -nan-jnan
  -nan-jnan
  -nan-jnan
  -nan-jnan
  -nan-jnan
  -nan-jnan
  -nan-jnan
  -nan-jnan
  -nan-jnan
  -nan-jnan
  -nan-jnan
  -nan-jnan
  -nan-jnan
  -nan-jnan
  -nan-jnan
  -nan-jnan
  -nan-jnan
  -nan-jnan
  -nan-jnan
  -nan-jnan
  -nan-jnan
  -nan-jnan
  -nan-jnan
  -nan-jnan
  -nan-jnan
  -nan-jnan
  -nan-jnan
  -nan-jnan
  -nan-jnan
  -nan-jnan
  -nan-jnan
  -nan-jnan
  -nan-jnan
  -nan-jnan
  -nan-jnan
  -nan-jnan
  -nan-jnan
  -nan-jnan
  -nan-jnan
  -nan-jnan
  -nan-jnan
  -nan-jnan
  -nan-jnan
  -nan-jnan
  -nan-jnan
  -nan-jnan
  -nan-jnan
  -nan-jnan
  -nan-jnan
  -nan-jnan
  -nan-jnan
  -nan-jnan
  -nan-jnan
  -nan-jnan
  -nan-jnan
  -nan-jnan
  -nan-jnan
  -nan-jnan
  -nan-jnan
  -nan-jnan
  -nan-jnan
  -nan-jnan
  -nan-jnan
  -nan-jnan
  -nan-jnan
  -nan-jnan
  -nan-jnan
  -nan-jnan
  -nan-jnan
  -nan-jnan
  -nan-jnan
  -nan-jnan
  -nan-jnan
  -nan-jnan
  -nan-jnan
  -nan-jnan
  -nan-jnan
  -nan-jnan
  -nan-jnan
  -nan-jnan
  -nan-jnan
  -nan-jnan
  -nan-jnan
  -nan-jnan
  -nan-jnan
  -nan-jnan
  -nan-jnan
  -nan-jnan
  -nan-jnan
  -nan-jnan
  -nan-jnan
  -nan-jnan
  -nan-jnan
  -nan-jnan
  -nan-jnan
  -nan-jnan
  -nan-jnan
  -nan-jnan
  -nan-jnan
  -nan-jnan
  -nan-jnan
  -nan-jnan
  -nan-jnan
  -nan-jnan
  -nan-jnan
  -nan-jnan
  -nan-jnan
  -nan-jnan
  -nan-jnan
  -nan-jnan
  -nan-jnan
  -nan-jnan
  -nan-jnan
  -nan-jnan
  -nan-jnan
  -nan-jnan
  -nan-jnan
  -nan-jnan
  -nan-jnan
  -nan-jnan
  -nan-jnan
  -nan-jnan
  -nan-jnan
  -nan-jnan
  -nan-jnan
  -nan-jnan
  -nan-jnan
  -nan-jnan
  -nan-jnan
  -nan-jnan
  -nan-jnan
  -nan-jnan
  -nan-jnan
  -nan-jnan
  -nan-jnan
  -nan-jnan
  -nan-jnan
  -nan-jnan
  -nan-jnan
  -nan-jnan
  -nan-jnan
  -nan-jnan
  -nan-jnan
  -nan-jnan
  -nan-jnan
  -nan-jnan
  -nan-jnan
  -nan-jnan
  -nan-jnan
  -nan-jnan
  -nan-jnan
  -nan-jnan
  -nan-jnan
  -nan-jnan
  -nan-jnan
  -nan-jnan
  -nan-jnan
  -nan-jnan
  -nan-jnan
  -nan-jnan
  -nan-jnan
  -nan-jnan
  -nan-jnan
  -nan-jnan
  -nan-jnan
  -nan-jnan
  -nan-jnan
  -nan-jnan
  -nan-jnan
  -nan-jnan
  -nan-jnan
  -nan-jnan
  -nan-jnan
  -nan-jnan
  -nan-jnan
  -nan-jnan
  -nan-jnan
  -nan-jnan
  -nan-jnan
  -nan-jnan
  -nan-jnan
  -nan-jnan
  -nan-jnan
  -nan-jnan
  -nan-jnan
  -nan-jnan
  -nan-jnan
  -nan-jnan
  -nan-jnan
  -nan-jnan
  -nan-jnan
  -nan-jnan
  -nan-jnan
  -nan-jnan
  -nan-jnan
  -nan-jnan
  -nan-jnan
  -nan-jnan
  -nan-jnan
  -nan-jnan
  -nan-jnan
  -nan-jnan
  -nan-jnan
  -nan-jnan
  -nan-jnan
  -nan-jnan
  -nan-jnan
  -nan-jnan
  -nan-jnan
  -nan-jnan
  -nan-jnan
  -nan-jnan
  -nan-jnan
  -nan-jnan
  -nan-jnan
  -nan-jnan
  -nan-jnan
  -nan-jnan
  -nan-jnan
  -nan-jnan
  -nan-jnan
  -nan-jnan
  -nan-jnan
  -nan-jnan
  -nan-jnan
  -nan-jnan
  -nan-jnan
  -nan-jnan
  -nan-jnan
  -nan-jnan
  -nan-jnan
  -nan-jnan
  -nan-jnan
  -nan-jnan
  -nan-jnan
  -nan-jnan
  -nan-jnan
  -nan-jnan
  -nan-jnan
  -nan-jnan
  -nan-jnan
  -nan-jnan
  -nan-jnan
  -nan-jnan
  -nan-jnan
  -nan-jnan
  -nan-jnan
  -nan-jnan
  -nan-jnan
  -nan-jnan
  -nan-jnan
  -nan-jnan
  -nan-jnan
  -nan-jnan
  -nan-jnan
  -nan-jnan
  -nan-jnan
  -nan-jnan
  -nan-jnan
  -nan-jnan
  -nan-jnan
  -nan-jnan
  -nan-jnan
  -nan-jnan
  -nan-jnan
  -nan-jnan
  -nan-jnan
  -nan-jnan
  -nan-jnan
  -nan-jnan
  -nan-jnan
  -nan-jnan
  -nan-jnan
  -nan-jnan
  -nan-jnan
  -nan-jnan
  -nan-jnan
  -nan-jnan
  -nan-jnan
  -nan-jnan
  -nan-jnan
  -nan-jnan
  -nan-jnan
  -nan-jnan
  -nan-jnan
  -nan-jnan
  -nan-jnan
  -nan-jnan
  -nan-jnan
  -nan-jnan
  -nan-jnan
  -nan-jnan
  -nan-jnan
  -nan-jnan
  -nan-jnan
  -nan-jnan
  -nan-jnan
  -nan-jnan
  -nan-jnan
  -nan-jnan
  -nan-jnan
  -nan-jnan
  -nan-jnan
  -nan-jnan
  -nan-jnan
  -nan-jnan
  -nan-jnan
  -nan-jnan
  -nan-jnan
  -nan-jnan
  -nan-jnan
  -nan-jnan
  -nan-jnan
  -nan-jnan
  -nan-jnan
  -nan-jnan
  -nan-jnan
  -nan-jnan
  -nan-jnan
  -nan-jnan
  -nan-jnan
  -nan-jnan
  -nan-jnan
  -nan-jnan
  -nan-jnan
  -nan-jnan
  -nan-jnan
  -nan-jnan
  -nan-jnan
  -nan-jnan
  -nan-jnan
  -nan-jnan
  -nan-jnan
  -nan-jnan
  -nan-jnan
  -nan-jnan
  -nan-jnan
  -nan-jnan
  -nan-jnan
  -nan-jnan
  -nan-jnan
  -nan-jnan
  -nan-jnan
  -nan-jnan
  -nan-jnan
  -nan-jnan
  -nan-jnan
  -nan-jnan
  -nan-jnan
  -nan-jnan
  -nan-jnan
  -nan-jnan
  -nan-jnan
  -nan-jnan
  -nan-jnan
  -nan-jnan
  -nan-jnan
  -nan-jnan
  -nan-jnan
  -nan-jnan
  -nan-jnan
  -nan-jnan
  -nan-jnan
  -nan-jnan
  -nan-jnan
  -nan-jnan
  -nan-jnan
  -nan-jnan
  -nan-jnan
  -nan-jnan
  -nan-jnan
  -nan-jnan
  -nan-jnan
  -nan-jnan
  -nan-jnan
  -nan-jnan
  -nan-jnan
  -nan-jnan
  -nan-jnan
  -nan-jnan
  -nan-jnan
  -nan-jnan
  -nan-jnan
  -nan-jnan
  -nan-jnan
  -nan-jnan
  -nan-jnan
  -nan-jnan
  -nan-jnan
  -nan-jnan
  -nan-jnan
  -nan-jnan
  -nan-jnan
  -nan-jnan
  -nan-jnan
  -nan-jnan
  -nan-jnan
  -nan-jnan
  -nan-jnan
  -nan-jnan
  -nan-jnan
  -nan-jnan
  -nan-jnan
  -nan-jnan
  -nan-jnan
  -nan-jnan
  -nan-jnan
  -nan-jnan
  -nan-jnan
  -nan-jnan
  -nan-jnan
  -nan-jnan
  -nan-jnan
  -nan-jnan
  -nan-jnan
  -nan-jnan
  -nan-jnan
  -nan-jnan
  -nan-jnan
  -nan-jnan
  -nan-jnan
  -nan-jnan
  -nan-jnan
  -nan-jnan
  -nan-jnan
  -nan-jnan
  -nan-jnan
  -nan-jnan
  -nan-jnan
  -nan-jnan
  -nan-jnan
  -nan-jnan
  -nan-jnan
  -nan-jnan
  -nan-jnan
  -nan-jnan
  -nan-jnan
  -nan-jnan
  -nan-jnan
  -nan-jnan
  -nan-jnan
</dep>
<dep Pr2.i acfrequency>
  -nan-jnan
  -nan-jnan
  -nan-jnan
  -nan-jnan
  -nan-jnan
  -nan-jnan
  -nan-jnan
  -nan-jnan
  -nan-jnan
  -nan-jnan
  -nan-jnan
  -nan-jnan
  -nan-jnan
  -nan-jnan
  -nan-jnan
  -nan-jnan
  -nan-jnan
  -nan-jnan
  -nan-jnan
  -nan-jnan
  -nan-jnan
  -nan-jnan
  -nan-jnan
  -nan-jnan
  -nan-jnan
  -nan-jnan
  -nan-jnan
  -nan-jnan
  -nan-jnan
  -nan-jnan
  -nan-jnan
  -nan-jnan
  -nan-jnan
  -nan-jnan
  -nan-jnan
  -nan-jnan
  -nan-jnan
  -nan-jnan
  -nan-jnan
  -nan-jnan
  -nan-jnan
  -nan-jnan
  -nan-jnan
  -nan-jnan
  -nan-jnan
  -nan-jnan
  -nan-jnan
  -nan-jnan
  -nan-jnan
  -nan-jnan
  -nan-jnan
  -nan-jnan
  -nan-jnan
  -nan-jnan
  -nan-jnan
  -nan-jnan
  -nan-jnan
  -nan-jnan
  -nan-jnan
  -nan-jnan
  -nan-jnan
  -nan-jnan
  -nan-jnan
  -nan-jnan
  -nan-jnan
  -nan-jnan
  -nan-jnan
  -nan-jnan
  -nan-jnan
  -nan-jnan
  -nan-jnan
  -nan-jnan
  -nan-jnan
  -nan-jnan
  -nan-jnan
  -nan-jnan
  -nan-jnan
  -nan-jnan
  -nan-jnan
  -nan-jnan
  -nan-jnan
  -nan-jnan
  -nan-jnan
  -nan-jnan
  -nan-jnan
  -nan-jnan
  -nan-jnan
  -nan-jnan
  -nan-jnan
  -nan-jnan
  -nan-jnan
  -nan-jnan
  -nan-jnan
  -nan-jnan
  -nan-jnan
  -nan-jnan
  -nan-jnan
  -nan-jnan
  -nan-jnan
  -nan-jnan
  -nan-jnan
  -nan-jnan
  -nan-jnan
  -nan-jnan
  -nan-jnan
  -nan-jnan
  -nan-jnan
  -nan-jnan
  -nan-jnan
  -nan-jnan
  -nan-jnan
  -nan-jnan
  -nan-jnan
  -nan-jnan
  -nan-jnan
  -nan-jnan
  -nan-jnan
  -nan-jnan
  -nan-jnan
  -nan-jnan
  -nan-jnan
  -nan-jnan
  -nan-jnan
  -nan-jnan
  -nan-jnan
  -nan-jnan
  -nan-jnan
  -nan-jnan
  -nan-jnan
  -nan-jnan
  -nan-jnan
  -nan-jnan
  -nan-jnan
  -nan-jnan
  -nan-jnan
  -nan-jnan
  -nan-jnan
  -nan-jnan
  -nan-jnan
  -nan-jnan
  -nan-jnan
  -nan-jnan
  -nan-jnan
  -nan-jnan
  -nan-jnan
  -nan-jnan
  -nan-jnan
  -nan-jnan
  -nan-jnan
  -nan-jnan
  -nan-jnan
  -nan-jnan
  -nan-jnan
  -nan-jnan
  -nan-jnan
  -nan-jnan
  -nan-jnan
  -nan-jnan
  -nan-jnan
  -nan-jnan
  -nan-jnan
  -nan-jnan
  -nan-jnan
  -nan-jnan
  -nan-jnan
  -nan-jnan
  -nan-jnan
  -nan-jnan
  -nan-jnan
  -nan-jnan
  -nan-jnan
  -nan-jnan
  -nan-jnan
  -nan-jnan
  -nan-jnan
  -nan-jnan
  -nan-jnan
  -nan-jnan
  -nan-jnan
  -nan-jnan
  -nan-jnan
  -nan-jnan
